
**** 10/05/17 22:15:08 ******* PSpice Lite (March 2016) ******* ID# 10813 ****

 ** Profile: "SCHEMATIC1-lab04BD-1"  [ C:\Users\K4tr1n4\Desktop\aqui\lab4-PSpiceFiles\SCHEMATIC1\lab04BD-1.sim ] 


 ****     CIRCUIT DESCRIPTION


******************************************************************************




** Creating circuit file "lab04BD-1.cir" 
** WARNING: THIS AUTOMATICALLY GENERATED FILE MAY BE OVERWRITTEN BY SUBSEQUENT SIMULATIONS

*Libraries: 
* Profile Libraries :
* Local Libraries :
.LIB "../../../ebipolar.lib" 
* From [PSPICE NETLIST] section of C:\Users\K4tr1n4\AppData\Roaming\SPB_Data\cdssetup\OrCAD_PSpice\17.2.0\PSpice.ini file:

*Analysis directives: 
.AC DEC 10 10 1000k
.OPTIONS ADVCONV
.PROBE64 V(alias(*)) I(alias(*)) W(alias(*)) D(alias(*)) NOISE(alias(*)) 
.INC "..\SCHEMATIC1.net" 



**** INCLUDING SCHEMATIC1.net ****
* source LAB4
C_C1         VIN N00155  1u  TC=0,0 
R_R1         0 N00155  1.2k TC=0,0 
R_R2         N00155 N00273  5.6k TC=0,0 
R_R3         N00390 N00273  330 TC=0,0 
V_V2         N00273 0 12Vdc
C_C2         N00390 N00422  1u  TC=0,0 
R_R4         0 N00422  220 TC=0,0 
Q_Q1         N00390 N00155 N00672 BC548B 
R_R5         0 N00672  100 TC=0,0 
C_C3         0 N00672  100u  TC=0,0 
V_V3         VIN 0 DC 0Vdc AC 50mVac 

**** RESUMING lab04BD-1.cir ****
.END

**** 10/05/17 22:15:08 ******* PSpice Lite (March 2016) ******* ID# 10813 ****

 ** Profile: "SCHEMATIC1-lab04BD-1"  [ C:\Users\K4tr1n4\Desktop\aqui\lab4-PSpiceFiles\SCHEMATIC1\lab04BD-1.sim ] 


 ****     BJT MODEL PARAMETERS


******************************************************************************




               BC548B          
               NPN             
       LEVEL    1            
          IS    7.049000E-15 
          BF  374.6          
          NF    1            
         VAF   62.79         
         IKF     .08157      
         ISE   68.000000E-15 
          NE    1.576        
          BR    1            
          NR    1            
         IKR    3.924        
         ISC   12.400000E-15 
          NC    1.835        
          NK     .4767       
         ISS    0            
          RE    0            
          RC     .9747       
         CJE   11.500000E-12 
         VJE     .5          
         MJE     .6715       
         CJC    5.250000E-12 
         VJC     .5697       
         MJC     .3147       
        XCJC    1            
         CJS    0            
         VJS     .75         
          TF  410.200000E-12 
         XTF   40.06         
         VTF   10            
         ITF    1.491        
          TR   10.000000E-09 
         XTB    1.5          
          KF    0            
          AF    1            
          CN    2.42         
           D     .87         


**** 10/05/17 22:15:08 ******* PSpice Lite (March 2016) ******* ID# 10813 ****

 ** Profile: "SCHEMATIC1-lab04BD-1"  [ C:\Users\K4tr1n4\Desktop\aqui\lab4-PSpiceFiles\SCHEMATIC1\lab04BD-1.sim ] 


 ****     SMALL SIGNAL BIAS SOLUTION       TEMPERATURE =   27.000 DEG C


******************************************************************************



 NODE   VOLTAGE     NODE   VOLTAGE     NODE   VOLTAGE     NODE   VOLTAGE


(  VIN)    0.0000  (N00155)    2.0762 (N00273)   12.0000 (N00390)    7.5795     

(N00422)    0.0000 (N00672)    1.3437 




    VOLTAGE SOURCE CURRENTS
    NAME         CURRENT

    V_V2        -1.517E-02
    V_V3         0.000E+00

    TOTAL POWER DISSIPATION   1.82E-01  WATTS



          JOB CONCLUDED

**** 10/05/17 22:15:08 ******* PSpice Lite (March 2016) ******* ID# 10813 ****

 ** Profile: "SCHEMATIC1-lab04BD-1"  [ C:\Users\K4tr1n4\Desktop\aqui\lab4-PSpiceFiles\SCHEMATIC1\lab04BD-1.sim ] 


 ****     JOB STATISTICS SUMMARY


******************************************************************************



  Total job time (using Solver 1)   =         .02
